"Freq [GHz]","stripWidth [um]","dB(S(2,1)) []"
2,175.5,-0.283565228728866
2,176.135640731544,-0.299488208439393
2,179.641368328212,-0.238681901500098
2,180.632350566089,-0.279040943032616
2,181.565229888318,-0.295172719084774
2,182.243430674305,-0.309196773564312
2,182.259370228776,-0.313314048629934
2,182.285224205483,-0.190951071148095
2,182.28986793117,-0.243932514962872
2,183.014505974022,-0.305133547787859
2,185.04074214866,-0.320660440404363
2,190.98639930531,-0.385868705117306
2,195,-0.293119797720422
2,201.797958150826,-0.303168467847366
2.08163265306122,175.5,-0.299581401897694
2.08163265306122,176.135640731544,-0.316661548171121
2.08163265306122,179.641368328212,-0.251544378911735
2.08163265306122,180.632350566089,-0.29457665888052
2.08163265306122,181.565229888318,-0.311461237827991
2.08163265306122,182.243430674305,-0.326501880895022
2.08163265306122,182.259370228776,-0.331143978959891
2.08163265306122,182.285224205483,-0.200796402369358
2.08163265306122,182.28986793117,-0.257015008339859
2.08163265306122,183.014505974022,-0.322193903070809
2.08163265306122,185.04074214866,-0.339232943150547
2.08163265306122,190.98639930531,-0.407869162687441
2.08163265306122,195,-0.309633642039761
2.08163265306122,201.797958150826,-0.320455382786346
2.16326530612245,175.5,-0.315617229741061
2.16326530612245,176.135640731544,-0.333873832539458
2.16326530612245,179.641368328212,-0.26436501294604
2.16326530612245,180.632350566089,-0.310087904526281
2.16326530612245,181.565229888318,-0.327700001336893
2.16326530612245,182.243430674305,-0.343763292329158
2.16326530612245,182.259370228776,-0.348977696745015
2.16326530612245,182.285224205483,-0.210601085241077
2.16326530612245,182.28986793117,-0.27003759257698
2.16326530612245,183.014505974022,-0.33920420271152
2.16326530612245,185.04074214866,-0.357849912474282
2.16326530612245,190.98639930531,-0.429779062317194
2.16326530612245,195,-0.326120976997234
2.16326530612245,201.797958150826,-0.337733811272753
2.24489795918367,175.5,-0.331627459736488
2.24489795918367,176.135640731544,-0.351077557961651
2.24489795918367,179.641368328212,-0.277102766480533
2.24489795918367,180.632350566089,-0.325527732380546
2.24489795918367,181.565229888318,-0.343835534798277
2.24489795918367,182.243430674305,-0.360927174695512
2.24489795918367,182.259370228776,-0.366763124910854
2.24489795918367,182.285224205483,-0.220335345164991
2.24489795918367,182.28986793117,-0.282958767391851
2.24489795918367,183.014505974022,-0.356110844650127
2.24489795918367,185.04074214866,-0.37645972689185
2.24489795918367,190.98639930531,-0.451526894240181
2.24489795918367,195,-0.342531251815118
2.24489795918367,201.797958150826,-0.354951987322426
2.3265306122449,175.5,-0.347567343460395
2.3265306122449,176.135640731544,-0.368225774476002
2.3265306122449,179.641368328212,-0.289717366474562
2.3265306122449,180.632350566089,-0.340849862652231
2.3265306122449,181.565229888318,-0.359815631672356
2.3265306122449,182.243430674305,-0.377940651728505
2.3265306122449,182.259370228776,-0.384448911410983
2.3265306122449,182.285224205483,-0.229969790216877
2.3265306122449,182.28986793117,-0.295737660628857
2.3265306122449,183.014505974022,-0.372861125834037
2.3265306122449,185.04074214866,-0.395011511461443
2.3265306122449,190.98639930531,-0.473042778027127
2.3265306122449,195,-0.358814674899969
2.3265306122449,201.797958150826,-0.372058902339365
2.40816326530612,175.5,-0.363392782780187
2.40816326530612,176.135640731544,-0.385272236194273
2.40816326530612,179.641368328212,-0.302169413555496
2.40816326530612,180.632350566089,-0.356008839840758
2.40816326530612,181.565229888318,-0.37558945894399
2.40816326530612,182.243430674305,-0.394751965253464
2.40816326530612,182.259370228776,-0.401984595217281
2.40816326530612,182.285224205483,-0.23947551036864
2.40816326530612,182.28986793117,-0.308334177052594
2.40816326530612,183.014505974022,-0.389403418029086
2.40816326530612,185.04074214866,-0.413455282657127
2.40816326530612,190.98639930531,-0.494258661727223
2.40816326530612,195,-0.374922377325227
2.40816326530612,201.797958150826,-0.389004467980611
2.48979591836735,175.5,-0.379060471772412
2.48979591836735,176.135640731544,-0.402171546578418
2.48979591836735,179.641368328212,-0.314420491952678
2.48979591836735,180.632350566089,-0.370960183962316
2.48979591836735,181.565229888318,-0.391107659211139
2.48979591836735,182.243430674305,-0.41131063126197
2.48979591836735,182.259370228776,-0.419320765432688
2.48979591836735,182.285224205483,-0.248824178226866
2.48979591836735,182.28986793117,-0.32070914324684
2.48979591836735,183.014505974022,-0.405687336106898
2.48979591836735,185.04074214866,-0.431742089372804
2.48979591836735,190.98639930531,-0.515108508594029
2.48979591836735,195,-0.390806570121137
2.48979591836735,201.797958150826,-0.405739672678998
2.57142857142857,175.5,-0.394528032583663
2.57142857142857,176.135640731544,-0.418879296791843
2.57142857142857,179.641368328212,-0.326433277914124
2.57142857142857,180.632350566089,-0.38566053479011
2.57142857142857,181.565229888318,-0.406322449922307
2.57142857142857,182.243430674305,-0.427567588951507
2.57142857142857,182.259370228776,-0.436409211846551
2.57142857142857,182.285224205483,-0.257988149288453
2.57142857142857,182.28986793117,-0.332824446859239
2.57142857142857,183.014505974022,-0.421663897183245
2.57142857142857,185.04074214866,-0.449824148073333
2.57142857142857,190.98639930531,-0.535528470022596
2.57142857142857,195,-0.406420693710055
2.57142857142857,201.797958150826,-0.422216730159754
2.6530612244898,175.5,-0.409754143997965
2.6530612244898,176.135640731544,-0.435352195926578
2.6530612244898,179.641368328212,-0.338171645078225
2.6530612244898,180.632350566089,-0.400067787931469
2.6530612244898,181.565229888318,-0.42118771988768
2.6530612244898,182.243430674305,-0.443475341369407
2.6530612244898,182.259370228776,-0.453203065823918
2.6530612244898,182.285224205483,-0.266940560184471
2.6530612244898,182.28986793117,-0.344643168957221
2.6530612244898,183.014505974022,-0.43728566954747
2.6530612244898,185.04074214866,-0.467654970658471
2.6530612244898,190.98639930531,-0.555457043918081
2.6530612244898,195,-0.421719558365352
2.6530612244898,201.797958150826,-0.438389218828386
2.73469387755102,175.5,-0.424698661898544
2.73469387755102,176.135640731544,-0.451548192335584
2.73469387755102,179.641368328212,-0.349600765587678
2.73469387755102,180.632350566089,-0.414141221986907
2.73469387755102,181.565229888318,-0.435659123051697
2.73469387755102,182.243430674305,-0.458988086759517
2.73469387755102,182.259370228776,-0.469656930863268
2.73469387755102,182.285224205483,-0.275655423759693
2.73469387755102,182.28986793117,-0.356129708667255
2.73469387755102,183.014505974022,-0.452506910763144
2.73469387755102,185.04074214866,-0.485189484052017
2.73469387755102,190.98639930531,-0.574835218194306
2.73469387755102,195,-0.436659474994824
2.73469387755102,201.797958150826,-0.454212211332899
2.81632653061224,175.5,-0.439322731140164
2.81632653061224,176.135640731544,-0.467426585631136
2.81632653061224,179.641368328212,-0.360687206018064
2.81632653061224,180.632350566089,-0.427841616363174
2.81632653061224,181.565229888318,-0.449694169419602
2.81632653061224,182.243430674305,-0.474061840077097
2.81632653061224,182.259370228776,-0.485727002499342
2.81632653061224,182.285224205483,-0.284107720134418
2.81632653061224,182.28986793117,-0.367249899583608
2.81632653061224,183.014505974022,-0.46728369466094
2.81632653061224,185.04074214866,-0.502384140888713
2.81632653061224,190.98639930531,-0.593606599479808
2.81632653061224,195,-0.451198375879388
2.81632653061224,201.797958150826,-0.469642393936172
2.89795918367347,175.5,-0.453588888600737
2.89795918367347,176.135640731544,-0.482948129165628
2.89795918367347,179.641368328212,-0.371399017444887
2.89795918367347,180.632350566089,-0.441131359563997
2.89795918367347,181.565229888318,-0.463252312967479
2.89795918367347,182.243430674305,-0.488654544427889
2.89795918367347,182.259370228776,-0.501371177490144
2.89795918367347,182.285224205483,-0.292273483131584
2.89795918367347,182.28986793117,-0.377971117673644
2.89795918367347,183.014505974022,-0.481574027205857
2.89795918367347,185.04074214866,-0.519197020958776
2.89795918367347,190.98639930531,-0.611717527401849
2.89795918367347,195,-0.465295925252713
2.89795918367347,201.797958150826,-0.484638175592599
2.97959183673469,175.5,-0.46746115737498
2.97959183673469,176.135640731544,-0.498075123007217
2.97959183673469,179.641368328212,-0.381705819190401
2.97959183673469,180.632350566089,-0.453974547974972
2.97959183673469,181.565229888318,-0.476295036327062
2.97959183673469,182.243430674305,-0.502726172413972
2.97959183673469,182.259370228776,-0.51654915242682
2.97959183673469,182.285224205483,-0.300129881638303
2.97959183673469,182.28986793117,-0.388262380591098
2.97959183673469,183.014505974022,-0.495337951419071
2.97959183673469,185.04074214866,-0.535587923296698
2.97959183673469,190.98639930531,-0.629117175039861
2.97959183673469,195,-0.47891361980324
2.97959183673469,201.797958150826,-0.499159786821845
3.06122448979592,175.5,-0.48090513222044
3.06122448979592,176.135640731544,-0.512771497571758
3.06122448979592,179.641368328212,-0.391578875975953
3.06122448979592,180.632350566089,-0.466337075304814
3.06122448979592,181.565229888318,-0.488785932015157
3.06122448979592,182.243430674305,-0.516238817543057
3.06122448979592,182.259370228776,-0.531222512054968
3.06122448979592,182.285224205483,-0.307655295616795
3.06122448979592,182.28986793117,-0.398094438448134
3.06122448979592,183.014505974022,-0.50853764168224
3.06122448979592,185.04074214866,-0.551518448977605
3.06122448979592,190.98639930531,-0.645757636300193
3.06122448979592,195,-0.492014879328211
3.06122448979592,201.797958150826,-0.513169368623451
3.14285714285714,175.5,-0.493888056477397
3.14285714285714,176.135640731544,-0.527002888184217
3.14285714285714,179.641368328212,-0.400991168359762
3.14285714285714,180.632350566089,-0.478186712953675
3.14285714285714,181.565229888318,-0.500690779967045
3.14285714285714,182.243430674305,-0.529156775988324
3.14285714285714,182.259370228776,-0.545354807706123
3.14285714285714,182.285224205483,-0.314829386593327
3.14285714285714,182.28986793117,-0.407439856201024
3.14285714285714,183.014505974022,-0.52113748785921
3.14285714285714,185.04074214866,-0.566952074819989
3.14285714285714,190.98639930531,-0.661594001073873
3.14285714285714,195,-0.504565127879209
3.14285714285714,201.797958150826,-0.526631051788294
3.22448979591837,175.5,-0.506378890766285
3.22448979591837,176.135640731544,-0.540736700925045
3.22448979591837,179.641368328212,-0.40991745646611
3.22448979591837,180.632350566089,-0.489493181658157
3.22448979591837,181.565229888318,-0.511977621128439
3.22448979591837,182.243430674305,-0.541446619080839
3.22448979591837,182.259370228776,-0.558911626316871
3.22448979591837,182.285224205483,-0.321633162541869
3.22448979591837,182.28986793117,-0.416273087880303
3.22448979591837,183.014505974022,-0.533104169744456
3.22448979591837,185.04074214866,-0.581854218295253
3.22448979591837,190.98639930531,-0.676584419107667
3.22448979591837,195,-0.516531865817998
3.22448979591837,201.797958150826,-0.539511027044136
3.30612244897959,175.5,-0.518348373825301
3.30612244897959,176.135640731544,-0.553942170175282
3.30612244897959,179.641368328212,-0.41833433711336
3.30612244897959,180.632350566089,-0.500228214817331
3.30612244897959,181.565229888318,-0.522616826857482
3.30612244897959,182.243430674305,-0.553077256981833
3.30612244897959,182.259370228776,-0.571860650566092
3.30612244897959,182.285224205483,-0.328049037146473
3.30612244897959,182.28986793117,-0.424570542949449
3.30612244897959,183.014505974022,-0.544406722395582
3.30612244897959,185.04074214866,-0.59619229401813
3.30612244897959,190.98639930531,-0.690690153552575
3.30612244897959,195,-0.527884733255463
3.30612244897959,201.797958150826,-0.551777606528299
3.38775510204082,175.5,-0.529769075891168
3.38775510204082,176.135640731544,-0.566590408313552
3.38775510204082,179.641368328212,-0.426220294527546
3.38775510204082,180.632350566089,-0.510365613939479
3.38775510204082,181.565229888318,-0.532581163883482
3.38775510204082,182.243430674305,-0.56401999402346
3.38775510204082,182.259370228776,-0.584171710693593
3.38775510204082,182.285224205483,-0.334060883477174
3.38775510204082,182.28986793117,-0.432310645111286
3.38775510204082,183.014505974022,-0.555016592933659
3.38775510204082,185.04074214866,-0.609935762243219
3.38775510204082,190.98639930531,-0.703875625160473
3.38775510204082,195,-0.53859556538035
3.38775510204082,201.797958150826,-0.563401277115678
3.46938775510204,175.5,-0.54061544505116
3.46938775510204,176.135640731544,-0.578654448041635
3.46938775510204,179.641368328212,-0.433555744888236
3.46938775510204,180.632350566089,-0.519881296668767
3.46938775510204,181.565229888318,-0.541845854560924
3.46938775510204,182.243430674305,-0.574248576227844
3.46938775510204,182.259370228776,-0.595816828579073
3.46938775510204,182.285224205483,-0.339654082151535
3.46938775510204,182.28986793117,-0.439473883901272
3.46938775510204,183.014505974022,-0.564907689404048
3.46938775510204,185.04074214866,-0.62305616982469
3.46938775510204,190.98639930531,-0.716108448082742
3.46938775510204,195,-0.548638440201427
3.46938775510204,201.797958150826,-0.574354746148579
3.55102040816327,175.5,-0.550863847007433
3.55102040816327,176.135640731544,-0.590109277826577
3.55102040816327,179.641368328212,-0.440323074996598
3.55102040816327,180.632350566089,-0.528753337857723
3.55102040816327,181.565229888318,-0.550388632143652
3.55102040816327,182.243430674305,-0.58373923151938
3.55102040816327,182.259370228776,-0.606770254662989
3.55102040816327,182.285224205483,-0.344815564080308
3.55102040816327,182.28986793117,-0.446042859415014
3.55102040816327,183.014505974022,-0.574056422285001
3.55102040816327,185.04074214866,-0.635527184113337
3.55102040816327,190.98639930531,-0.727359458190345
3.55102040816327,195,-0.557989719230276
3.55102040816327,201.797958150826,-0.584612980119334
3.63265306122449,175.5,-0.560492598697382
3.63265306122449,176.135640731544,-0.600931870947892
3.63265306122449,179.641368328212,-0.446506675384066
3.63265306122449,180.632350566089,-0.536962004147243
3.63265306122449,181.565229888318,-0.558189790784578
3.63265306122449,182.243430674305,-0.592470703136765
3.63265306122449,182.259370228776,-0.617008498282088
3.63265306122449,182.285224205483,-0.349533847913009
3.63265306122449,182.28986793117,-0.452002320515079
3.63265306122449,183.014505974022,-0.582441739214095
3.63265306122449,185.04074214866,-0.647324620269028
3.63265306122449,190.98639930531,-0.737602734785439
3.63265306122449,195,-0.56662808162397
3.63265306122449,201.797958150826,-0.594153236849765
3.71428571428571,175.5,-0.569481996208345
3.71428571428571,176.135640731544,-0.611101208631001
3.71428571428571,179.641368328212,-0.45209296819593
3.71428571428571,180.632350566089,-0.544489782503271
3.71428571428571,181.565229888318,-0.565232229940657
3.71428571428571,182.243430674305,-0.600424276732139
3.71428571428571,182.259370228776,-0.626510351974914
3.71428571428571,182.285224205483,-0.353799072309271
3.71428571428571,182.28986793117,-0.457339196852066
3.71428571428571,183.014505974022,-0.590045153476023
3.71428571428571,185.04074214866,-0.658426462460862
3.71428571428571,190.98639930531,-0.746815616513794
3.71428571428571,195,-0.574534552290131
3.71428571428571,201.797958150826,-0.6029550916954
3.79591836734694,175.5,-0.577814337412776
3.79591836734694,176.135640731544,-0.620598297733556
3.79591836734694,179.641368328212,-0.457070430189102
3.79591836734694,180.632350566089,-0.551321403139475
3.79591836734694,181.565229888318,-0.571501492830916
3.79591836734694,182.243430674305,-0.607583801616656
3.79591836734694,182.259370228776,-0.635256910287919
3.79591836734694,182.285224205483,-0.357603023165811
3.79591836734694,182.28986793117,-0.462042625017715
3.79591836734694,183.014505974022,-0.596850766760854
3.79591836734694,185.04074214866,-0.668812879412833
3.79591836734694,190.98639930531,-0.754978712217918
3.79591836734694,195,-0.581692524432331
3.79591836734694,201.797958150826,-0.61100045827894
3.87755102040816,175.5,-0.585473939732257
3.87755102040816,176.135640731544,-0.629406183431493
3.87755102040816,179.641368328212,-0.461429611178909
3.87755102040816,180.632350566089,-0.557443857229695
3.87755102040816,181.565229888318,-0.576985798558472
3.87755102040816,182.243430674305,-0.613935706576643
3.87755102040816,182.259370228776,-0.64323158358219
3.87755102040816,182.285224205483,-0.36093915592778
3.87755102040816,182.28986793117,-0.466103969125441
3.87755102040816,183.014505974022,-0.602845286661295
3.87755102040816,185.04074214866,-0.678466234731967
3.87755102040816,190.98639930531,-0.762075907394118
3.87755102040816,195,-0.588087776983402
3.87755102040816,201.797958150826,-0.618273604227506
3.95918367346939,175.5,-0.592447153416763
3.95918367346939,176.135640731544,-0.637509957327535
3.95918367346939,179.641368328212,-0.465163148257428
3.95918367346939,180.632350566089,-0.562846409783895
3.95918367346939,181.565229888318,-0.581676067466096
3.95918367346939,182.243430674305,-0.61946901064396
3.95918367346939,182.259370228776,-0.650420107306036
3.95918367346939,182.285224205483,-0.363802613108248
3.95918367346939,182.28986793117,-0.46951683608658
3.95918367346939,183.014505974022,-0.608018039332163
3.95918367346939,185.04074214866,-0.687371092429712
3.95918367346939,190.98639930531,-0.768094366835345
3.95918367346939,195,-0.593708487339033
3.95918367346939,201.797958150826,-0.624761162354038
4.04081632653061,175.5,-0.598722370699751
4.04081632653061,176.135640731544,-0.644896761377198
4.04081632653061,179.641368328212,-0.468265776086525
4.04081632653061,180.632350566089,-0.567520608027532
4.04081632653061,181.565229888318,-0.585565939250705
4.04081632653061,182.243430674305,-0.624175329159081
4.04081632653061,182.259370228776,-0.656810547159956
4.04081632653061,182.285224205483,-0.366190237131275
4.04081632653061,182.28986793117,-0.47227708582023
4.04081632653061,183.014505974022,-0.612360977685889
4.04081632653061,185.04074214866,-0.695514218017046
4.04081632653061,190.98639930531,-0.773024533956548
4.04081632653061,195,-0.598545239764879
4.04081632653061,201.797958150826,-0.630452137684754
4.12244897959184,175.5,-0.604290031161423
4.12244897959184,176.135640731544,-0.651555787997136
4.12244897959184,179.641368328212,-0.470734333544003
4.12244897959184,180.632350566089,-0.571460285587579
4.12244897959184,181.565229888318,-0.58865178331716
4.12244897959184,182.243430674305,-0.628048875417166
4.12244897959184,182.259370228776,-0.662393300539509
4.12244897959184,182.285224205483,-0.368100578603006
4.12244897959184,182.28986793117,-0.474382836601288
4.12244897959184,183.014505974022,-0.615868685445786
4.12244897959184,185.04074214866,-0.702884575520498
4.12244897959184,190.98639930531,-0.776860127211423
4.12244897959184,195,-0.602591029808499
4.12244897959184,201.797958150826,-0.635337910693601
4.20408163265306,175.5,-0.609142623601798
4.20408163265306,176.135640731544,-0.657478276688569
4.20408163265306,179.641368328212,-0.472567766971178
4.20408163265306,180.632350566089,-0.574661562750035
4.20408163265306,181.565229888318,-0.590932700807443
4.20408163265306,182.243430674305,-0.63108645813684
4.20408163265306,182.259370228776,-0.667161094598405
4.20408163265306,182.285224205483,-0.36953390010233
4.20408163265306,182.28986793117,-0.475834465716308
4.20408163265306,183.014505974022,-0.618538377324626
