"Freq [GHz]","stripWidth [um]","mag(Z(1,2)) []"
2,398.736708035871,79.9233829720873
2,409.352794016234,79.1468919841977
2,410.580366223675,77.0828688184746
2,410.793932859758,80.5149466236319
2,412.601294985413,79.2601453430729
2,412.625824229513,79.2390412701418
2,414.876298451301,80.1058060617017
2,415.461841294666,78.7225770240329
2,415.894510629143,77.5987071508969
2,416.83239223816,77.8694373572817
2,417.45180349737,77.0994670570377
2,417.480107973605,79.3611631188845
2,417.508807848341,79.2373894357256
2,418.1478473107,79.879041458715
2,418.171310885233,79.114676067237
2,418.236708035871,76.4430952467947
2,418.245105725659,75.1810241898101
2,418.265613059069,80.5100733533963
2,418.268201996968,77.3665719690203
2,418.320684933751,77.4424771949539
2,418.334942247673,75.5506959228384
2,418.358077574831,77.5535478453329
2,418.498735524361,75.9308850677676
2,418.503912692486,77.3838716498218
2,419.211061745681,79.9634739043078
2,419.440024486627,78.1878918435347
2,419.641023833582,77.5713504381793
2,420.578905442598,75.814882605007
2,420.743819807329,77.068514674839
2,420.780748521747,77.2932967302874
2,423.847591842229,76.7510461388428
2,423.872121086329,77.1436120033064
2,426.259365481857,78.3264492891905
2,434.376298451301,75.4850925442209
2.08163265306122,398.736708035871,77.0111877161256
2.08163265306122,409.352794016234,76.2569050333942
2.08163265306122,410.580366223675,74.2742635218122
2.08163265306122,410.793932859758,77.5814486184733
2.08163265306122,412.601294985413,76.3629996107577
2.08163265306122,412.625824229513,76.3468925864832
2.08163265306122,414.876298451301,77.1843802812272
2.08163265306122,415.461841294666,75.852784691118
2.08163265306122,415.894510629143,74.7679154912094
2.08163265306122,416.83239223816,75.0278773197154
2.08163265306122,417.45180349737,74.279830797622
2.08163265306122,417.480107973605,76.4623823758053
2.08163265306122,417.508807848341,76.3443245358316
2.08163265306122,418.1478473107,76.964848108026
2.08163265306122,418.171310885233,76.2301823030983
2.08163265306122,418.236708035871,73.6648641391192
2.08163265306122,418.245105725659,72.4420372428037
2.08163265306122,418.265613059069,77.5738043180027
2.08163265306122,418.268201996968,74.543809280774
2.08163265306122,418.320684933751,74.6173511891636
2.08163265306122,418.334942247673,72.7980588658428
2.08163265306122,418.358077574831,74.720619901543
2.08163265306122,418.498735524361,73.1617011626658
2.08163265306122,418.503912692486,74.5676268474973
2.08163265306122,419.211061745681,77.0459598626538
2.08163265306122,419.440024486627,75.3323729602037
2.08163265306122,419.641023833582,74.7423343874167
2.08163265306122,420.578905442598,73.0528781896796
2.08163265306122,420.743819807329,74.2534921437099
2.08163265306122,420.780748521747,74.4637282180593
2.08163265306122,423.847591842229,73.9488492013557
2.08163265306122,423.872121086329,74.328266199741
2.08163265306122,426.259365481857,75.4666011794747
2.08163265306122,434.376298451301,72.7360044718315
2.16326530612245,398.736708035871,74.328217673388
2.16326530612245,409.352794016234,73.5940274644211
2.16326530612245,410.580366223675,71.6864708493045
2.16326530612245,410.793932859758,74.8788084594171
2.16326530612245,412.601294985413,73.6934364326663
2.16326530612245,412.625824229513,73.6820917016913
2.16326530612245,414.876298451301,74.4931364583093
2.16326530612245,415.461841294666,73.20869051454
2.16326530612245,415.894510629143,72.1597589261778
2.16326530612245,416.83239223816,72.409535373989
2.16326530612245,417.45180349737,71.6815060517597
2.16326530612245,417.480107973605,73.791387222291
2.16326530612245,417.508807848341,73.6786444444114
2.16326530612245,418.1478473107,74.27980012295
2.16326530612245,418.171310885233,73.5724591528211
2.16326530612245,418.236708035871,71.1057858213428
2.16326530612245,418.245105725659,69.9236485721572
2.16326530612245,418.265613059069,74.8685189355576
2.16326530612245,418.268201996968,71.9429675484393
2.16326530612245,418.320684933751,72.0143843395557
2.16326530612245,418.334942247673,70.2623602388142
2.16326530612245,418.358077574831,72.110211863734
2.16326530612245,418.498735524361,70.6103081944567
2.16326530612245,418.503912692486,71.973195464292
2.16326530612245,419.211061745681,74.357893194151
2.16326530612245,419.440024486627,72.7007130323431
2.16326530612245,419.641023833582,72.1358676028558
2.16326530612245,420.578905442598,70.5080248375238
2.16326530612245,420.743819807329,71.6595327597908
2.16326530612245,420.780748521747,71.8713639954851
2.16326530612245,423.847591842229,71.3668757188189
2.16326530612245,423.872121086329,71.7342442827638
2.16326530612245,426.259365481857,72.8315678668022
2.16326530612245,434.376298451301,70.2027798679667
2.24489795918367,398.736708035871,71.8495779010418
2.24489795918367,409.352794016234,71.1335856865772
2.24489795918367,410.580366223675,69.2955547963597
2.24489795918367,410.793932859758,72.3819566242469
2.24489795918367,412.601294985413,71.2267138245906
2.24489795918367,412.625824229513,71.2199371928598
2.24489795918367,414.876298451301,72.0070840454113
2.24489795918367,415.461841294666,70.7657504958859
2.24489795918367,415.894510629143,69.7500434841253
2.24489795918367,416.83239223816,69.9902004357208
2.24489795918367,417.45180349737,69.2804416193208
2.24489795918367,417.480107973605,71.3234219348131
2.24489795918367,417.508807848341,71.2157958888107
2.24489795918367,418.1478473107,71.7990044074772
2.24489795918367,418.171310885233,71.1169178806027
2.24489795918367,418.236708035871,68.7420908648664
2.24489795918367,418.245105725659,67.5974305573026
2.24489795918367,418.265613059069,72.3691069045877
2.24489795918367,418.268201996968,69.5399451875408
2.24489795918367,418.320684933751,69.609449053857
2.24489795918367,418.334942247673,67.920000080624
2.24489795918367,418.358077574831,69.698158166641
2.24489795918367,418.498735524361,68.2530480910342
2.24489795918367,418.503912692486,69.5764814457202
2.24489795918367,419.211061745681,71.8743630209108
2.24489795918367,419.440024486627,70.2687649826185
2.24489795918367,419.641023833582,69.7277529144362
2.24489795918367,420.578905442598,68.1567658012297
2.24489795918367,420.743819807329,69.2626231240297
2.24489795918367,420.780748521747,69.4783524100463
2.24489795918367,423.847591842229,68.9812021825208
2.24489795918367,423.872121086329,69.3374944094438
2.24489795918367,426.259365481857,70.3969054114826
2.24489795918367,434.376298451301,67.8620225456199
2.3265306122449,398.736708035871,69.5538633164633
2.3265306122449,409.352794016234,68.8543727903059
2.3265306122449,410.580366223675,67.0809367638391
2.3265306122449,410.793932859758,70.0693450124584
2.3265306122449,412.601294985413,68.9415685094801
2.3265306122449,412.625824229513,68.9391995250085
2.3265306122449,414.876298451301,69.7048230113139
2.3265306122449,415.461841294666,68.5028163126
2.3265306122449,415.894510629143,67.5179790059826
2.3265306122449,416.83239223816,67.7490544775265
2.3265306122449,417.45180349737,67.0559682610153
2.3265306122449,417.480107973605,69.0372106906618
2.3265306122449,417.508807848341,68.9345392652706
2.3265306122449,418.1478473107,69.5010662478703
2.3265306122449,418.171310885233,68.8424211950611
2.3265306122449,418.236708035871,66.5534425780485
2.3265306122449,418.245105725659,65.4424559197564
2.3265306122449,418.265613059069,70.053996540943
2.3265306122449,418.268201996968,67.3140254605094
2.3265306122449,418.320684933751,67.3817981439515
2.3265306122449,418.334942247673,65.7506962713724
2.3265306122449,418.358077574831,67.4636862366626
2.3265306122449,418.498735524361,66.0695869262369
2.3265306122449,418.503912692486,67.3567765710077
2.3265306122449,419.211061745681,69.5739518742713
2.3265306122449,419.440024486627,68.015789802381
2.3265306122449,419.641023833582,67.4971969647767
2.3265306122449,420.578905442598,65.978850416078
2.3265306122449,420.743819807329,67.0420735448683
2.3265306122449,420.780748521747,67.2623036887433
2.3265306122449,423.847591842229,66.7712652885612
2.3265306122449,423.872121086329,67.1173465370153
2.3265306122449,426.259365481857,68.1416101780208
2.3265306122449,434.376298451301,65.693614651869
2.40816326530612,398.736708035871,67.4225713243651
2.40816326530612,409.352794016234,66.7380613988119
2.40816326530612,410.580366223675,65.0248285895107
2.40816326530612,410.793932859758,67.922350771176
2.40816326530612,412.601294985413,66.8196265407277
2.40816326530612,412.625824229513,66.8215326546893
2.40816326530612,414.876298451301,67.5677971322037
2.40816326530612,415.461841294666,66.4014606789321
2.40816326530612,415.894510629143,65.4456098594789
2.40816326530612,416.83239223816,65.6680825125561
2.40816326530612,417.45180349737,64.9902322166769
2.40816326530612,417.480107973605,66.9143677674389
2.40816326530612,417.508807848341,66.8164383582874
2.40816326530612,418.1478473107,67.3674965227355
2.40816326530612,418.171310885233,66.7307017274668
2.40816326530612,418.236708035871,64.5226857478778
2.40816326530612,418.245105725659,63.4414582877019
2.40816326530612,418.265613059069,67.9045541130832
2.40816326530612,418.268201996968,65.2473035378786
2.40816326530612,418.320684933751,65.3134391876704
2.40816326530612,418.334942247673,63.7369219486739
2.40816326530612,418.358077574831,65.3888419889762
2.40816326530612,418.498735524361,64.0423520491935
2.40816326530612,418.503912692486,65.296186265744
2.40816326530612,419.211061745681,67.4381401986208
2.40816326530612,419.440024486627,65.9239926291682
2.40816326530612,419.641023833582,65.4262325834944
2.40816326530612,420.578905442598,63.9567746043426
2.40816326530612,420.743819807329,64.979726394377
2.40816326530612,420.780748521747,65.2051657229313
2.40816326530612,423.847591842229,64.7192932649726
2.40816326530612,423.872121086329,65.0559390670315
2.40816326530612,426.259365481857,66.0475345573933
2.40816326530612,434.376298451301,63.6801609148731
2.48979591836735,398.736708035871,65.4396289924441
2.48979591836735,409.352794016234,64.7687319407871
2.48979591836735,410.580366223675,63.1117773523961
2.48979591836735,410.793932859758,65.9247973190935
2.48979591836735,412.601294985413,64.8449296527513
2.48979591836735,412.625824229513,64.8510013975742
2.48979591836735,414.876298451301,65.578611387737
2.48979591836735,415.461841294666,64.4464820456206
2.48979591836735,415.894510629143,63.5173699906273
2.48979591836735,416.83239223816,63.7314679356612
2.48979591836735,417.45180349737,63.0677350049085
2.48979591836735,417.480107973605,64.9389237967396
2.48979591836735,417.508807848341,64.8454864525865
2.48979591836735,418.1478473107,65.3822355340049
2.48979591836735,418.171310885233,64.7658970157646
2.48979591836735,418.236708035871,62.6352997766189
2.48979591836735,418.245105725659,61.5795201128022
2.48979591836735,418.265613059069,65.9046011236523
2.48979591836735,418.268201996968,63.3242261261191
2.48979591836735,418.320684933751,63.3894089276054
2.48979591836735,418.334942247673,61.8634539267675
2.48979591836735,418.358077574831,63.4580278951127
2.48979591836735,418.498735524361,62.1560798064542
2.48979591836735,418.503912692486,63.3791684028754
2.48979591836735,419.211061745681,65.4508310033691
2.48979591836735,419.440024486627,63.9781060769658
2.48979591836735,419.641023833582,63.4992551136194
2.48979591836735,420.578905442598,62.0753313665642
2.48979591836735,420.743819807329,63.0609735004804
2.48979591836735,420.780748521747,63.291395596985
2.48979591836735,423.847591842229,62.8098488692107
2.48979591836735,423.872121086329,63.1377583487281
2.48979591836735,426.259365481857,64.0989179513999
2.48979591836735,434.376298451301,61.8065411194119
2.57142857142857,398.736708035871,63.5910095330371
2.57142857142857,409.352794016234,62.9324907188953
2.57142857142857,410.580366223675,61.3282973574803
2.57142857142857,410.793932859758,64.0625665421823
2.57142857142857,412.601294985413,63.0035517445535
2.57142857142857,412.625824229513,63.0136988351839
2.57142857142857,414.876298451301,63.7246652362836
2.57142857142857,415.461841294666,62.6373275465278
2.57142857142857,415.894510629143,61.7196625825979
2.57142857142857,416.83239223816,61.922879311489
2.57142857142857,417.45180349737,61.2749503634576
2.57142857142857,417.480107973605,63.0969422784723
2.57142857142857,417.508807848341,63.0077431472094
2.57142857142857,418.1478473107,63.5312675405949
2.57142857142857,418.171310885233,62.934178129418
2.57142857142857,418.236708035871,60.8685416632867
2.57142857142857,418.245105725659,59.8436025996322
2.57142857142857,418.265613059069,64.0400230015237
2.57142857142857,418.268201996968,61.5312186792405
2.57142857142857,418.320684933751,61.5950128385594
2.57142857142857,418.334942247673,60.1170074894807
2.57142857142857,418.358077574831,61.6576277161075
2.57142857142857,418.498735524361,60.3974493217208
2.57142857142857,418.503912692486,61.5921599784962
2.57142857142857,419.211061745681,63.597969999007
2.57142857142857,419.440024486627,62.1643834363487
2.57142857142857,419.641023833582,61.7026475065596
2.57142857142857,420.578905442598,60.3212468312478
2.57142857142857,420.743819807329,61.2751192017839
2.57142857142857,420.780748521747,61.5074525311116
2.57142857142857,423.847591842229,61.0294592843451
2.57142857142857,423.872121086329,61.3492659473492
2.57142857142857,426.259365481857,62.2820073375048
2.57142857142857,434.376298451301,60.0595460391411
2.6530612244898,398.736708035871,61.8644189196863
2.6530612244898,409.352794016234,61.2171584505248
2.6530612244898,410.580366223675,59.662570719411
2.6530612244898,410.793932859758,62.3232825341058
2.6530612244898,412.601294985413,61.2832861467894
2.6530612244898,412.625824229513,61.2974343674787
2.6530612244898,414.876298451301,61.9896504780361
2.6530612244898,415.461841294666,60.9285130770809
2.6530612244898,415.894510629143,60.0404238315213
2.6530612244898,416.83239223816,60.2327353575816
2.6530612244898,417.45180349737,59.6000064232133
2.6530612244898,417.480107973605,61.3762069126538
2.6530612244898,417.508807848341,61.291007454012
2.6530612244898,418.1478473107,61.8023064578194
2.6530612244898,418.171310885233,61.2234599647474
2.6530612244898,418.236708035871,59.2230842803721
2.6530612244898,418.245105725659,58.2222521160312
2.6530612244898,418.265613059069,62.2984491912954
2.6530612244898,418.268201996968,59.8563813547065
2.6530612244898,418.320684933751,59.9190508241001
2.6530612244898,418.334942247673,58.4859389820975
2.6530612244898,418.358077574831,59.975695369959
2.6530612244898,418.498735524361,58.7547838264589
2.6530612244898,418.503912692486,59.9232727319817
2.6530612244898,419.211061745681,61.8672384753054
2.6530612244898,419.440024486627,60.4702777842554
2.6530612244898,419.641023833582,60.0244753174032
2.6530612244898,420.578905442598,58.6828834489242
2.6530612244898,420.743819807329,59.6028009062101
2.6530612244898,420.780748521747,59.8414716650395
2.6530612244898,423.847591842229,59.3663142319126
2.6530612244898,423.872121086329,59.6785947634835
2.6530612244898,426.259365481857,60.5847480622476
2.6530612244898,434.376298451301,58.4275773646299
2.73469387755102,398.736708035871,60.2490380565127
2.73469387755102,409.352794016234,59.6120145675909
2.73469387755102,410.580366223675,58.104201944278
2.73469387755102,410.793932859758,60.6960519358673
2.73469387755102,412.601294985413,59.6733889129961
2.73469387755102,412.625824229513,59.6914776489659
2.73469387755102,414.876298451301,60.3692649496233
2.73469387755102,415.461841294666,59.3348442597671
2.73469387755102,415.894510629143,58.46913944545
2.73469387755102,416.83239223816,58.6603342462648
2.73469387755102,417.45180349737,58.0324369366104
2.73469387755102,417.480107973605,59.7659649498705
2.73469387755102,417.508807848341,59.6845475344815
2.73469387755102,418.1478473107,60.1845378520006
2.73469387755102,418.171310885233,59.6232018313135
2.73469387755102,418.236708035871,57.6843913479253
2.73469387755102,418.245105725659,56.7053688449722
2.73469387755102,418.265613059069,60.6689894913145
2.73469387755102,418.268201996968,58.2892393681975
2.73469387755102,418.320684933751,58.3509183114053
2.73469387755102,418.334942247673,56.9600020155781
2.73469387755102,418.358077574831,58.4016756001458
2.73469387755102,418.498735524361,57.2178054464428
2.73469387755102,418.503912692486,58.3620433017153
2.73469387755102,419.211061745681,60.2477994441011
2.73469387755102,419.440024486627,58.8848134038634
2.73469387755102,419.641023833582,58.4542372595548
2.73469387755102,420.578905442598,57.1499963151727
2.73469387755102,420.743819807329,58.0385660021589
2.73469387755102,420.780748521747,58.2830099730731
2.73469387755102,423.847591842229,57.8100180753289
2.73469387755102,423.872121086329,58.1152996087783
2.73469387755102,426.259365481857,58.9965301446312
2.73469387755102,434.376298451301,56.9003950979455
2.81632653061224,398.736708035871,58.735309342376
2.81632653061224,409.352794016234,58.1075859707996
2.81632653061224,410.580366223675,56.6440134869388
2.81632653061224,410.793932859758,59.17124939165
2.81632653061224,412.601294985413,58.1643667815554
2.81632653061224,412.625824229513,58.186347069014
2.81632653061224,414.876298451301,58.8515351142548
2.81632653061224,415.461841294666,57.8421446271489
2.81632653061224,415.894510629143,56.9965698753686
2.81632653061224,416.83239223816,57.1815276510888
2.81632653061224,417.45180349737,56.5630055869361
2.81632653061224,417.480107973605,58.2567151944445
2.81632653061224,417.508807848341,58.1788802787691
2.81632653061224,418.1478473107,58.668405808397
2.81632653061224,418.171310885233,58.1243878398308
2.81632653061224,418.236708035871,56.2429336979622
2.81632653061224,418.245105725659,55.2840155200786
2.81632653061224,418.265613059069,59.1420153421458
2.81632653061224,418.268201996968,56.8205367242814
2.81632653061224,418.320684933751,56.8813351821543
2.81632653061224,418.334942247673,55.5301462869569
2.81632653061224,418.358077574831,56.9260824654557
2.81632653061224,418.498735524361,55.7774326121826
2.81632653061224,418.503912692486,56.8992268494628
2.81632653061224,419.211061745681,58.7300843431443
2.81632653061224,419.440024486627,57.3985407835122
2.81632653061224,419.641023833582,56.9826598686278
2.81632653061224,420.578905442598,55.7135318586309
2.81632653061224,420.743819807329,56.5726392053674
2.81632653061224,420.780748521747,56.822839349292
2.81632653061224,423.847591842229,56.3513849822638
2.81632653061224,423.872121086329,56.6501511832449
2.81632653061224,426.259365481857,57.5079787945641
2.81632653061224,434.376298451301,55.4688960095215
2.89795918367347,398.736708035871,57.3147590091611
2.89795918367347,409.352794016234,56.6954714790704
2.89795918367347,410.580366223675,55.2738672510547
2.89795918367347,410.793932859758,57.7403392248389
2.89795918367347,412.601294985413,56.7478010048873
2.89795918367347,412.625824229513,56.7736339924345
2.89795918367347,414.876298451301,57.4266416345328
2.89795918367347,415.461841294666,56.4415112468774
2.89795918367347,415.894510629143,55.6144938312706
2.89795918367347,416.83239223816,55.7934094876843
2.89795918367347,417.45180349737,55.1835412296086
2.89795918367347,417.480107973605,56.8400318570859
2.89795918367347,417.508807848341,56.7655900682511
2.89795918367347,418.1478473107,57.2454358247551
2.89795918367347,418.171310885233,56.7209640398834
2.89795918367347,418.236708035871,54.8905659392508
2.89795918367347,418.245105725659,53.9502574165981
2.89795918367347,418.265613059069,57.7089780700685
2.89795918367347,418.268201996968,55.4420647810385
2.89795918367347,418.320684933751,55.5020783741815
2.89795918367347,418.334942247673,54.1883503445769
2.89795918367347,418.358077574831,55.5407266324095
